! Sonnet Data File
! From: em Version : 14.54
! From Project: S5_truegapdistance
! Data is De-embedded 
! Data File Written: 06/27/2014 05:42:39
!< HDATE 06/16/2014 22:22:56
!< MDATE 06/26/2014 15:44:37
# GHZ S RI R 50.00000
0.620000000000000 0.0052776118023 0.0019577506185 0.3673326883363 -0.930071762829 0.3673326883370 -0.930071762824 0.0051906358224 0.0021779706279
!< P1 F=0.62 Eeff=(7.06252451 -9.0439e-6) Z0=(50.4878634 3.17661e-5) R=0.00312066 C=0.16473536 
!< P2 F=0.62 Eeff=(7.06252451 -9.0439e-6) Z0=(50.4878634 3.17661e-5) R=0.00312066 C=0.16473536 
0.699616260000000 0.0059686789291 0.0012074838646 0.2207536263160 -0.975309708457 0.2207536263176 -0.975309708459 0.0059066180609 0.0014816749368
!< P1 F=0.69961626 Eeff=(7.06372288 -9.2485e-6) Z0=(50.4819443 3.12501e-5) R=0.00272395 C=0.16461802 
!< P2 F=0.69961626 Eeff=(7.06372288 -9.2485e-6) Z0=(50.4819443 3.12501e-5) R=0.00272395 C=0.16461802 
0.700000000000000 0.0059684193448 0.0012033744267 0.2200285413071 -0.975473548860 0.2200285412995 -0.975473548872 0.0059068149999 0.0014764913066
!< P1 F=0.7 Eeff=(7.06372922 -9.0169e-6) Z0=(50.4819164 3.21291e-5) R=0.00272104 C=0.16461744 
!< P2 F=0.7 Eeff=(7.06372922 -9.0169e-6) Z0=(50.4819164 3.21291e-5) R=0.00272104 C=0.16461744 
0.708381960000000 0.0027374963402 0.0011554611663 0.2010003974258 -0.979577247217 0.2010003974258 -0.979577247217 0.0029642388462 3.2407846676e-5
0.708382200000000 0.0027336291218 0.0011555110097 0.2009961514990 -0.979578130806 0.2009961514990 -0.979578130806 0.0029607052478 3.0810480648e-5
0.708382440000000 0.0027297530468 0.0011555609766 0.2009918968893 -0.979579016198 0.2009918968893 -0.979579016198 0.0029571635547 2.9209466783e-5
0.708382680000000 0.0027258680847 0.0011556110675 0.2009876335669 -0.979579903398 0.2009876335669 -0.979579903398 0.0029536137393 2.7604792546e-5
0.708382920000000 0.0027219742051 0.0011556612828 0.2009833615018 -0.979580792414 0.2009833615018 -0.979580792414 0.0029500557735 2.5996445347e-5
0.708383160000000 0.0027180713771 0.0011557116229 0.2009790806639 -0.979581683251 0.2009790806639 -0.979581683251 0.0029464896292 2.4384412554e-5
0.708383400000000 0.0027141595699 0.0011557620883 0.2009747910228 -0.979582575915 0.2009747910228 -0.979582575915 0.0029429152782 2.2768681461e-5
0.708383640000000 0.0027102387525 0.0011558126794 0.2009704925483 -0.979583470413 0.2009704925483 -0.979583470413 0.0029393326921 2.1149239307e-5
0.708383880000000 0.0027063088937 0.0011558633967 0.2009661852098 -0.979584366751 0.2009661852098 -0.979584366751 0.0029357418426 1.9526073261e-5
0.708384120000000 0.0027023699622 0.0011559142406 0.2009618689765 -0.979585264936 0.2009618689765 -0.979585264936 0.0029321427010 1.7899170465e-5
0.708384360000000 0.0026984219266 0.0011559652116 0.2009575438177 -0.979586164974 0.2009575438177 -0.979586164974 0.0029285352385 1.6268517965e-5
0.708384600000000 0.0026944647554 0.0011560163102 0.2009532097024 -0.979587066871 0.2009532097024 -0.979587066871 0.0029249194262 1.4634102776e-5
0.708384840000000 0.0026904984167 0.0011560675367 0.2009488665995 -0.979587970634 0.2009488665995 -0.979587970634 0.0029212952353 1.2995911835e-5
0.708385080000000 0.0026865228787 0.0011561188916 0.2009445144777 -0.979588876269 0.2009445144777 -0.979588876269 0.0029176626364 1.1353932027e-5
0.708385320000000 0.0026825381095 0.0011561703755 0.2009401533056 -0.979589783783 0.2009401533056 -0.979589783783 0.0029140216005 9.7081501647e-6
0.708385560000000 0.0026785440767 0.0011562219887 0.2009357830518 -0.979590693183 0.2009357830518 -0.979590693183 0.0029103720979 8.0585530117e-6
0.708385800000000 0.0026745407481 0.0011562737317 0.2009314036844 -0.979591604474 0.2009314036844 -0.979591604474 0.0029067140993 6.4051272725e-6
0.708386040000000 0.0026705280912 0.0011563256050 0.2009270151717 -0.979592517663 0.2009270151717 -0.979592517663 0.0029030475749 4.7478595819e-6
0.708386280000000 0.0026665060734 0.0011563776091 0.2009226174816 -0.979593432758 0.2009226174816 -0.979593432758 0.0028993724948 3.0867364999e-6
0.708386520000000 0.0026624746619 0.0011564297444 0.2009182105820 -0.979594349764 0.2009182105820 -0.979594349764 0.0028956888292 1.4217445543e-6
0.708386760000000 0.0026584338238 0.0011564820115 0.2009137944407 -0.979595268689 0.2009137944407 -0.979595268689 0.0028919965479 -2.471298071e-7
0.708387000000000 0.0026543835259 0.0011565344107 0.2009093690252 -0.979596189539 0.2009093690252 -0.979596189539 0.0028882956206 -1.919900203e-6
0.708387240000000 0.0026503237351 0.0011565869425 0.2009049343029 -0.979597112321 0.2009049343029 -0.979597112321 0.0028845860171 -3.596580314e-6
0.708387480000000 0.0026462544180 0.0011566396075 0.2009004902411 -0.979598037042 0.2009004902411 -0.979598037042 0.0028808677067 -5.277183875e-6
0.708387720000000 0.0026421755409 0.0011566924061 0.2008960368068 -0.979598963708 0.2008960368068 -0.979598963708 0.0028771406587 -6.961724711e-6
0.708387960000000 0.0026380870703 0.0011567453388 0.2008915739671 -0.979599892327 0.2008915739671 -0.979599892327 0.0028734048425 -8.650216669e-6
0.708388200000000 0.0026339889721 0.0011567984061 0.2008871016886 -0.979600822905 0.2008871016886 -0.979600822905 0.0028696602269 -1.034267370e-5
0.708388440000000 0.0026298812125 0.0011568516085 0.2008826199381 -0.979601755449 0.2008826199381 -0.979601755449 0.0028659067810 -1.203910981e-5
0.708388680000000 0.0026257637571 0.0011569049464 0.2008781286820 -0.979602689966 0.2008781286820 -0.979602689966 0.0028621444734 -1.373953906e-5
0.708388920000000 0.0026216365717 0.0011569584204 0.2008736278866 -0.979603626463 0.2008736278866 -0.979603626463 0.0028583732727 -1.544397559e-5
0.708389160000000 0.0026174996217 0.0011570120310 0.2008691175182 -0.979604564947 0.2008691175182 -0.979604564947 0.0028545931474 -1.715243360e-5
0.708389400000000 0.0026133528725 0.0011570657786 0.2008645975426 -0.979605505426 0.2008645975426 -0.979605505426 0.0028508040658 -1.886492736e-5
0.708389640000000 0.0026091962892 0.0011571196638 0.2008600679257 -0.979606447905 0.2008600679257 -0.979606447905 0.0028470059961 -2.058147121e-5
0.708389880000000 0.0026050298368 0.0011571736870 0.2008555286333 -0.979607392393 0.2008555286333 -0.979607392393 0.0028431989062 -2.230207955e-5
0.708390120000000 0.0026008534801 0.0011572278489 0.2008509796308 -0.979608338897 0.2008509796308 -0.979608338897 0.0028393827639 -2.402676685e-5
0.708390360000000 0.0025966671838 0.0011572821498 0.2008464208836 -0.979609287423 0.2008464208836 -0.979609287423 0.0028355575371 -2.575554766e-5
0.708390600000000 0.0025924709124 0.0011573365902 0.2008418523568 -0.979610237979 0.2008418523568 -0.979610237979 0.0028317231931 -2.748843659e-5
0.708390840000000 0.0025882646302 0.0011573911708 0.2008372740155 -0.979611190572 0.2008372740155 -0.979611190572 0.0028278796995 -2.922544832e-5
0.708391080000000 0.0025840483014 0.0011574458920 0.2008326858245 -0.979612145209 0.2008326858245 -0.979612145209 0.0028240270234 -3.096659758e-5
0.708391320000000 0.0025798218899 0.0011575007543 0.2008280877486 -0.979613101899 0.2008280877486 -0.979613101899 0.0028201651319 -3.271189923e-5
0.708391560000000 0.0025755853595 0.0011575557583 0.2008234797521 -0.979614060647 0.2008234797521 -0.979614060647 0.0028162939919 -3.446136814e-5
0.708391800000000 0.0025713386740 0.0011576109045 0.2008188617996 -0.979615021462 0.2008188617996 -0.979615021462 0.0028124135702 -3.621501927e-5
0.708392040000000 0.0025670817966 0.0011576661934 0.2008142338550 -0.979615984350 0.2008142338550 -0.979615984350 0.0028085238333 -3.797286767e-5
0.708392280000000 0.0025628146908 0.0011577216255 0.2008095958825 -0.979616949320 0.2008095958825 -0.979616949320 0.0028046247478 -3.973492843e-5
0.708392520000000 0.0025585373196 0.0011577772014 0.2008049478459 -0.979617916379 0.2008049478459 -0.979617916379 0.0028007162798 -4.150121675e-5
0.708392760000000 0.0025542496459 0.0011578329216 0.2008002897088 -0.979618885534 0.2008002897088 -0.979618885534 0.0027967983955 -4.327174786e-5
0.708393000000000 0.0025499516326 0.0011578887866 0.2007956214347 -0.979619856793 0.2007956214347 -0.979619856793 0.0027928710609 -4.504653710e-5
0.708393240000000 0.0025456432422 0.0011579447970 0.2007909429870 -0.979620830163 0.2007909429870 -0.979620830163 0.0027889342417 -4.682559987e-5
0.708393480000000 0.0025413244370 0.0011580009533 0.2007862543286 -0.979621805653 0.2007862543286 -0.979621805653 0.0027849879035 -4.860895164e-5
0.708393720000000 0.0025369951793 0.0011580572561 0.2007815554226 -0.979622783270 0.2007815554226 -0.979622783270 0.0027810320118 -5.039660797e-5
0.708393960000000 0.0025326554311 0.0011581137059 0.2007768462318 -0.979623763021 0.2007768462318 -0.979623763021 0.0027770665319 -5.218858447e-5
0.708394200000000 0.0025283051542 0.0011581703032 0.2007721267186 -0.979624744914 0.2007721267186 -0.979624744914 0.0027730914289 -5.398489686e-5
0.708394440000000 0.0025239443104 0.0011582270487 0.2007673968457 -0.979625728958 0.2007673968457 -0.979625728958 0.0027691066678 -5.578556089e-5
0.708394680000000 0.0025195728610 0.0011582839428 0.2007626565750 -0.979626715159 0.2007626565750 -0.979626715159 0.0027651122132 -5.759059243e-5
0.708394920000000 0.0025151907674 0.0011583409862 0.2007579058688 -0.979627703526 0.2007579058688 -0.979627703526 0.0027611080299 -5.940000742e-5
0.708395160000000 0.0025107979906 0.0011583981793 0.2007531446888 -0.979628694067 0.2007531446888 -0.979628694067 0.0027570940823 -6.121382184e-5
0.708395400000000 0.0025063944916 0.0011584555229 0.2007483729967 -0.979629686789 0.2007483729967 -0.979629686789 0.0027530703345 -6.303205180e-5
0.708395640000000 0.0025019802310 0.0011585130173 0.2007435907540 -0.979630681701 0.2007435907540 -0.979630681701 0.0027490367508 -6.485471346e-5
0.708395880000000 0.0024975551694 0.0011585706632 0.2007387979219 -0.979631678811 0.2007387979219 -0.979631678811 0.0027449932950 -6.668182305e-5
0.708396120000000 0.0024931192671 0.0011586284612 0.2007339944617 -0.979632678126 0.2007339944617 -0.979632678126 0.0027409399308 -6.851339690e-5
0.708396360000000 0.0024886724843 0.0011586864118 0.2007291803341 -0.979633679655 0.2007291803341 -0.979633679655 0.0027368766218 -7.034945143e-5
0.708396600000000 0.0024842147809 0.0011587445157 0.2007243555000 -0.979634683406 0.2007243555000 -0.979634683406 0.0027328033314 -7.219000310e-5
0.708396840000000 0.0024797461165 0.0011588027733 0.2007195199198 -0.979635689387 0.2007195199198 -0.979635689387 0.0027287200228 -7.403506849e-5
0.708397080000000 0.0024752664508 0.0011588611853 0.2007146735538 -0.979636697607 0.2007146735538 -0.979636697607 0.0027246266589 -7.588466422e-5
0.708397320000000 0.0024707757432 0.0011589197523 0.2007098163623 -0.979637708073 0.2007098163623 -0.979637708073 0.0027205232027 -7.773880706e-5
0.708397560000000 0.0024662739527 0.0011589784749 0.2007049483051 -0.979638720793 0.2007049483051 -0.979638720793 0.0027164096167 -7.959751379e-5
0.708397800000000 0.0024617610382 0.0011590373536 0.2007000693420 -0.979639735777 0.2007000693420 -0.979639735777 0.0027122858635 -8.146080130e-5
0.708398040000000 0.0024572369586 0.0011590963890 0.2006951794325 -0.979640753033 0.2006951794325 -0.979640753033 0.0027081519052 -8.332868660e-5
0.708398280000000 0.0024527016723 0.0011591555818 0.2006902785359 -0.979641772568 0.2006902785359 -0.979641772568 0.0027040077041 -8.520118670e-5
0.708398520000000 0.0024481551377 0.0011592149326 0.2006853666115 -0.979642794392 0.2006853666115 -0.979642794392 0.0026998532219 -8.707831878e-5
0.708398760000000 0.0024435973130 0.0011592744419 0.2006804436181 -0.979643818513 0.2006804436181 -0.979643818513 0.0026956884205 -8.896010008e-5
0.708399000000000 0.0024390281559 0.0011593341104 0.2006755095145 -0.979644844940 0.2006755095145 -0.979644844940 0.0026915132613 -9.084654788e-5
0.708399240000000 0.0024344476242 0.0011593939386 0.2006705642592 -0.979645873680 0.2006705642592 -0.979645873680 0.0026873277056 -9.273767961e-5
0.708399480000000 0.0024298556755 0.0011594539273 0.2006656078105 -0.979646904743 0.2006656078105 -0.979646904743 0.0026831317147 -9.463351274e-5
0.708399720000000 0.0024252522669 0.0011595140770 0.2006606401265 -0.979647938138 0.2006606401265 -0.979647938138 0.0026789252494 -9.653406486e-5
0.708399960000000 0.0024206373556 0.0011595743882 0.2006556611652 -0.979648973872 0.2006556611652 -0.979648973872 0.0026747082706 -9.843935363e-5
0.708400200000000 0.0024160108984 0.0011596348618 0.2006506708842 -0.979650011956 0.2006506708842 -0.979650011956 0.0026704807387 -1.003493968e-4
0.708400440000000 0.0024113728519 0.0011596954982 0.2006456692410 -0.979651052397 0.2006456692410 -0.979651052397 0.0026662426141 -1.022642122e-4
0.708400680000000 0.0024067231725 0.0011597562982 0.2006406561930 -0.979652095205 0.2006406561930 -0.979652095205 0.0026619938570 -1.041838178e-4
0.708400920000000 0.0024020618166 0.0011598172622 0.2006356316970 -0.979653140388 0.2006356316970 -0.979653140388 0.0026577344273 -1.061082315e-4
0.708401160000000 0.0023973887399 0.0011598783911 0.2006305957100 -0.979654187956 0.2006305957100 -0.979654187956 0.0026534642848 -1.080374716e-4
0.708401400000000 0.0023927038984 0.0011599396854 0.2006255481886 -0.979655237917 0.2006255481886 -0.979655237917 0.0026491833890 -1.099715562e-4
0.708401640000000 0.0023880072475 0.0011600011458 0.2006204890892 -0.979656290280 0.2006204890892 -0.979656290280 0.0026448916994 -1.119105035e-4
0.708401880000000 0.0023832987425 0.0011600627729 0.2006154183680 -0.979657345055 0.2006154183680 -0.979657345055 0.0026405891749 -1.138543321e-4
0.708402120000000 0.0023785783385 0.0011601245673 0.2006103359809 -0.979658402250 0.2006103359809 -0.979658402250 0.0026362757747 -1.158030603e-4
0.708402360000000 0.0023738459904 0.0011601865298 0.2006052418837 -0.979659461875 0.2006052418837 -0.979659461875 0.0026319514573 -1.177567067e-4
0.708402600000000 0.0023691016528 0.0011602486609 0.2006001360319 -0.979660523939 0.2006001360319 -0.979660523939 0.0026276161814 -1.197152900e-4
0.708402840000000 0.0023643452801 0.0011603109614 0.2005950183807 -0.979661588451 0.2005950183807 -0.979661588451 0.0026232699052 -1.216788290e-4
0.708403080000000 0.0023595768265 0.0011603734319 0.2005898888853 -0.979662655421 0.2005898888853 -0.979662655421 0.0026189125869 -1.236473424e-4
0.708403320000000 0.0023547962459 0.0011604360731 0.2005847475004 -0.979663724857 0.2005847475004 -0.979663724857 0.0026145441842 -1.256208494e-4
0.708403560000000 0.0023500034920 0.0011604988856 0.2005795941807 -0.979664796770 0.2005795941807 -0.979664796770 0.0026101646550 -1.275993688e-4
0.708403800000000 0.0023451985183 0.0011605618701 0.2005744288806 -0.979665871168 0.2005744288806 -0.979665871168 0.0026057739566 -1.295829199e-4
0.708404040000000 0.0023403812779 0.0011606250273 0.2005692515541 -0.979666948062 0.2005692515541 -0.979666948062 0.0026013720463 -1.315715219e-4
0.708404280000000 0.0023355517239 0.0011606883579 0.2005640621552 -0.979668027461 0.2005640621552 -0.979668027461 0.0025969588811 -1.335651941e-4
0.708404520000000 0.0023307098091 0.0011607518626 0.2005588606376 -0.979669109373 0.2005588606376 -0.979669109373 0.0025925344179 -1.355639560e-4
0.708404760000000 0.0023258554858 0.0011608155420 0.2005536469546 -0.979670193810 0.2005536469546 -0.979670193810 0.0025880986131 -1.375678271e-4
0.708405000000000 0.0023209887065 0.0011608793969 0.2005484210595 -0.979671280780 0.2005484210595 -0.979671280780 0.0025836514232 -1.395768270e-4
0.708405240000000 0.0023161094231 0.0011609434279 0.2005431829052 -0.979672370294 0.2005431829052 -0.979672370294 0.0025791928042 -1.415909756e-4
0.708405480000000 0.0023112175873 0.0011610076357 0.2005379324445 -0.979673462361 0.2005379324445 -0.979673462361 0.0025747227121 -1.436102925e-4
0.708405720000000 0.0023063131507 0.0011610720211 0.2005326696297 -0.979674556991 0.2005326696297 -0.979674556991 0.0025702411026 -1.456347978e-4
0.708405960000000 0.0023013960646 0.0011611365847 0.2005273944132 -0.979675654194 0.2005273944132 -0.979675654194 0.0025657479311 -1.476645116e-4
0.708406200000000 0.0022964662800 0.0011612013273 0.2005221067468 -0.979676753980 0.2005221067468 -0.979676753980 0.0025612431529 -1.496994539e-4
0.708406440000000 0.0022915237476 0.0011612662496 0.2005168065824 -0.979677856359 0.2005168065824 -0.979677856359 0.0025567267228 -1.517396450e-4
0.708406680000000 0.0022865684179 0.0011613313523 0.2005114938713 -0.979678961341 0.2005114938713 -0.979678961341 0.0025521985958 -1.537851053e-4
0.708406920000000 0.0022816002413 0.0011613966361 0.2005061685648 -0.979680068935 0.2005061685648 -0.979680068935 0.0025476587262 -1.558358553e-4
0.708407160000000 0.0022766191677 0.0011614621018 0.2005008306140 -0.979681179153 0.2005008306140 -0.979681179153 0.0025431070685 -1.578919154e-4
0.708407400000000 0.0022716251468 0.0011615277500 0.2004954799694 -0.979682292004 0.2004954799694 -0.979682292004 0.0025385435766 -1.599533065e-4
0.708407640000000 0.0022666181281 0.0011615935815 0.2004901165816 -0.979683407499 0.2004901165816 -0.979683407499 0.0025339682043 -1.620200492e-4
0.708407880000000 0.0022615980609 0.0011616595971 0.2004847404007 -0.979684525648 0.2004847404007 -0.979684525648 0.0025293809052 -1.640921644e-4
0.708408120000000 0.0022565648940 0.0011617257975 0.2004793513768 -0.979685646461 0.2004793513768 -0.979685646461 0.0025247816327 -1.661696733e-4
0.708408360000000 0.0022515185762 0.0011617921834 0.2004739494594 -0.979686769949 0.2004739494594 -0.979686769949 0.0025201703398 -1.682525968e-4
0.708408600000000 0.0022464590558 0.0011618587556 0.2004685345980 -0.979687896122 0.2004685345980 -0.979687896122 0.0025155469793 -1.703409561e-4
0.708408840000000 0.0022413862811 0.0011619255149 0.2004631067417 -0.979689024991 0.2004631067417 -0.979689024991 0.0025109115039 -1.724347727e-4
0.708409080000000 0.0022363001998 0.0011619924620 0.2004576658395 -0.979690156566 0.2004576658395 -0.979690156566 0.0025062638659 -1.745340680e-4
0.708409320000000 0.0022312007595 0.0011620595976 0.2004522118399 -0.979691290858 0.2004522118399 -0.979691290858 0.0025016040173 -1.766388635e-4
0.708409560000000 0.0022260879077 0.0011621269225 0.2004467446913 -0.979692427878 0.2004467446913 -0.979692427878 0.0024969319101 -1.787491809e-4
0.708409800000000 0.0022209615913 0.0011621944376 0.2004412643418 -0.979693567636 0.2004412643418 -0.979693567636 0.0024922474958 -1.808650419e-4
0.708410040000000 0.0022158217571 0.0011622621436 0.2004357707392 -0.979694710143 0.2004357707392 -0.979694710143 0.0024875507257 -1.829864686e-4
0.708410280000000 0.0022106683515 0.0011623300411 0.2004302638309 -0.979695855410 0.2004302638309 -0.979695855410 0.0024828415509 -1.851134828e-4
0.708410520000000 0.0022055013208 0.0011623981312 0.2004247435643 -0.979697003448 0.2004247435643 -0.979697003448 0.0024781199222 -1.872461067e-4
0.708410760000000 0.0022003206110 0.0011624664144 0.2004192098863 -0.979698154268 0.2004192098863 -0.979698154268 0.0024733857902 -1.893843626e-4
0.708411000000000 0.0021951261675 0.0011625348917 0.2004136627436 -0.979699307881 0.2004136627436 -0.979699307881 0.0024686391051 -1.915282728e-4
0.708411240000000 0.0021899179358 0.0011626035638 0.2004081020825 -0.979700464298 0.2004081020825 -0.979700464298 0.0024638798170 -1.936778598e-4
0.708411480000000 0.0021846958608 0.0011626724316 0.2004025278493 -0.979701623531 0.2004025278493 -0.979701623531 0.0024591078757 -1.958331462e-4
0.708411720000000 0.0021794598875 0.0011627414957 0.2003969399898 -0.979702785590 0.2003969399898 -0.979702785590 0.0024543232307 -1.979941548e-4
0.708411960000000 0.0021742099601 0.0011628107571 0.2003913384494 -0.979703950486 0.2003913384494 -0.979703950486 0.0024495258310 -2.001609083e-4
0.708412200000000 0.0021689460230 0.0011628802165 0.2003857231735 -0.979705118232 0.2003857231735 -0.979705118232 0.0024447156259 -2.023334298e-4
0.708412440000000 0.0021636680199 0.0011629498748 0.2003800941070 -0.979706288838 0.2003800941070 -0.979706288838 0.0024398925638 -2.045117423e-4
